time	V(n002)	V(n004)
0.000000000000000e+000	2.500000e+000	2.499505e+000
6.726387884866980e-002	2.499999e+000	2.499505e+000
1.345277576973396e-001	2.499999e+000	2.499506e+000
2.017916365460094e-001	2.499999e+000	2.499505e+000
2.690555153946792e-001	2.500000e+000	2.499505e+000
3.363193942433490e-001	2.500001e+000	2.499503e+000
4.035832730920188e-001	2.500003e+000	2.499502e+000
4.708471519406885e-001	2.500005e+000	2.499499e+000
4.797757233692599e-001	2.500005e+000	2.499499e+000
4.887042947978313e-001	2.500008e+000	2.499496e+000
4.976328662264028e-001	2.500014e+000	2.499491e+000
5.065614376549742e-001	2.500022e+000	2.499482e+000
5.154900090835457e-001	2.500033e+000	2.499472e+000
5.244185805121171e-001	2.500046e+000	2.499458e+000
5.333471519406885e-001	2.500062e+000	2.499442e+000
5.383694733692599e-001	2.500074e+000	2.499430e+000
5.433917947978314e-001	2.500091e+000	2.499413e+000
5.484141162264028e-001	2.500113e+000	2.499391e+000
5.534364376549742e-001	2.500140e+000	2.499363e+000
5.584587590835457e-001	2.500173e+000	2.499330e+000
5.634810805121171e-001	2.500211e+000	2.499292e+000
5.685034019406885e-001	2.500255e+000	2.499248e+000
5.743627769406885e-001	2.500322e+000	2.499180e+000
5.802221519406885e-001	2.500407e+000	2.499094e+000
5.860815269406885e-001	2.500515e+000	2.498985e+000
5.919409019406885e-001	2.500650e+000	2.498848e+000
5.978002769406885e-001	2.500822e+000	2.498675e+000
6.017065269406885e-001	2.500962e+000	2.498534e+000
6.056127769406885e-001	2.501124e+000	2.498370e+000
6.095190269406885e-001	2.501314e+000	2.498178e+000
6.134252769406885e-001	2.501537e+000	2.497954e+000
6.173315269406885e-001	2.501797e+000	2.497691e+000
6.212377769406885e-001	2.502101e+000	2.497385e+000
6.251440269406885e-001	2.502457e+000	2.497026e+000
6.290502769406885e-001	2.502872e+000	2.496606e+000
6.329565269406885e-001	2.503358e+000	2.496116e+000
6.368627769406885e-001	2.503927e+000	2.495543e+000
6.407690269406885e-001	2.504591e+000	2.494872e+000
6.446752769406885e-001	2.505368e+000	2.494088e+000
6.466284019406885e-001	2.505804e+000	2.493648e+000
6.485815269406885e-001	2.506276e+000	2.493172e+000
6.505346519406885e-001	2.506786e+000	2.492657e+000
6.524877769406885e-001	2.507338e+000	2.492100e+000
6.544409019406885e-001	2.507935e+000	2.491498e+000
6.563940269406885e-001	2.508580e+000	2.490848e+000
6.583471519406885e-001	2.509277e+000	2.490144e+000
6.603002769406885e-001	2.510031e+000	2.489383e+000
6.622534019406885e-001	2.510847e+000	2.488560e+000
6.642065269406885e-001	2.511729e+000	2.487670e+000
6.661596519406885e-001	2.512682e+000	2.486708e+000
6.681127769406885e-001	2.513714e+000	2.485667e+000
6.700659019406885e-001	2.514829e+000	2.484542e+000
6.720190269406885e-001	2.516034e+000	2.483326e+000
6.739721519406885e-001	2.517338e+000	2.482010e+000
6.759252769406885e-001	2.518748e+000	2.480588e+000
6.778784019406885e-001	2.520272e+000	2.479050e+000
6.798315269406885e-001	2.521920e+000	2.477387e+000
6.817846519406885e-001	2.523702e+000	2.475589e+000
6.837377769406885e-001	2.525629e+000	2.473645e+000
6.856909019406885e-001	2.527713e+000	2.471542e+000
6.876440269406885e-001	2.529966e+000	2.469269e+000
6.895971519406885e-001	2.532402e+000	2.466810e+000
6.915502769406885e-001	2.535036e+000	2.464152e+000
6.935034019406885e-001	2.537885e+000	2.461278e+000
6.954565269406885e-001	2.540965e+000	2.458170e+000
6.974096519406885e-001	2.544296e+000	2.454810e+000
6.993627769406885e-001	2.547897e+000	2.451176e+000
7.013159019406885e-001	2.551791e+000	2.447247e+000
7.032690269406885e-001	2.556002e+000	2.442998e+000
7.052221519406885e-001	2.560555e+000	2.438404e+000
7.071752769406885e-001	2.565478e+000	2.433436e+000
7.091284019406885e-001	2.570801e+000	2.428065e+000
7.110815269406885e-001	2.576558e+000	2.422257e+000
7.130346519406885e-001	2.582782e+000	2.415976e+000
7.149877769406885e-001	2.589513e+000	2.409185e+000
7.169409019406885e-001	2.596790e+000	2.401842e+000
7.188940269406885e-001	2.604660e+000	2.393902e+000
7.208471519406885e-001	2.613169e+000	2.385316e+000
7.228002769406885e-001	2.622370e+000	2.376033e+000
7.247534019406885e-001	2.632318e+000	2.365994e+000
7.267065269406885e-001	2.643076e+000	2.355140e+000
7.286596519406885e-001	2.654709e+000	2.343403e+000
7.306127769406885e-001	2.667287e+000	2.330712e+000
7.325659019406885e-001	2.680888e+000	2.316989e+000
7.345190269406885e-001	2.695594e+000	2.302151e+000
7.364721519406885e-001	2.711497e+000	2.286107e+000
7.384252769406885e-001	2.728692e+000	2.268758e+000
7.403784019406885e-001	2.747285e+000	2.249999e+000
7.423315269406885e-001	2.767390e+000	2.229714e+000
7.442846519406885e-001	2.789129e+000	2.207782e+000
7.462377769406885e-001	2.812636e+000	2.184066e+000
7.481909019406885e-001	2.838054e+000	2.158423e+000
7.501440269406885e-001	2.865538e+000	2.130696e+000
7.520971519406885e-001	2.895257e+000	2.100715e+000
7.540502769406885e-001	2.927393e+000	2.068298e+000
7.560034019406885e-001	2.962141e+000	2.033246e+000
7.579565269406885e-001	2.999714e+000	1.995346e+000
7.599096519406885e-001	3.040342e+000	1.954367e+000
7.618627769406885e-001	3.084273e+000	1.910058e+000
7.638159019406885e-001	3.131776e+000	1.862149e+000
7.657690269406885e-001	3.183141e+000	1.810347e+000
7.677221519406885e-001	3.238681e+000	1.754338e+000
7.696752769406885e-001	3.298738e+000	1.693778e+000
7.716284019406885e-001	3.363677e+000	1.628298e+000
7.735815269406885e-001	3.433896e+000	1.557498e+000
7.755346519406885e-001	3.509824e+000	1.480944e+000
7.774877769406885e-001	3.591925e+000	1.398166e+000
7.794409019406885e-001	3.680701e+000	1.308657e+000
7.813940269406885e-001	3.776695e+000	1.211863e+000
7.833471519406885e-001	3.880493e+000	1.107181e+000
7.853002769406885e-001	3.992730e+000	9.939535e-001
7.872534019406885e-001	4.114093e+000	8.714538e-001
7.892065269406885e-001	4.245322e+000	7.388682e-001
7.911596519406885e-001	4.387221e+000	5.952524e-001
7.931127769406885e-001	4.540657e+000	4.394208e-001
7.950659019406885e-001	4.707750e+000	2.688223e-001
7.970190269406885e-001	4.889196e+000	8.332906e-002
7.972147972805169e-001	4.910274e+000	6.242886e-002
7.972637398654741e-001	4.916260e+000	5.682037e-002
7.973616250353883e-001	4.929853e+000	4.530827e-002
7.975573953752168e-001	4.961453e+000	2.087083e-002
7.975609451594297e-001	4.962654e+000	2.007241e-002
7.975636074975894e-001	4.963749e+000	1.938603e-002
7.975667644350529e-001	4.964314e+000	1.903540e-002
7.975672267791382e-001	4.964238e+000	1.908252e-002
7.975683826393512e-001	4.963602e+000	1.947799e-002
7.975688449834364e-001	4.962967e+000	1.987766e-002
7.975697696716068e-001	4.961082e+000	2.107362e-002
7.975699176910455e-001	4.960598e+000	2.138520e-002
7.975702137299230e-001	4.959088e+000	2.237201e-002
7.975705381703209e-001	4.956807e+000	2.388431e-002
7.975706181245859e-001	4.955963e+000	2.445598e-002
7.975707780331158e-001	4.953519e+000	2.614960e-002
7.975709330744577e-001	4.950360e+000	2.838101e-002
7.975709702466670e-001	4.949291e+000	2.915771e-002
7.975710445910856e-001	4.946251e+000	3.143595e-002
7.975711482997692e-001	4.939911e+000	3.640367e-002
7.975712362390035e-001	4.931102e+000	4.370343e-002
7.975712937546332e-001	4.921414e+000	5.222850e-002
7.975713367932080e-001	4.909481e+000	6.332972e-002
7.975713740795172e-001	4.892805e+000	7.958644e-002
7.975714076266633e-001	4.868451e+000	1.041644e-001
7.975714377974574e-001	4.831805e+000	1.418772e-001
7.975714664157811e-001	4.770650e+000	2.050354e-001
7.975714994298343e-001	4.651376e+000	3.275611e-001
7.975715309182430e-001	4.472373e+000	5.100868e-001
7.975715762195706e-001	4.123337e+000	8.642382e-001
7.975716232620402e-001	3.701315e+000	1.291540e+000
7.975716774172150e-001	3.184714e+000	1.814315e+000
7.975717496290199e-001	2.485885e+000	2.520858e+000
7.975718940526296e-001	1.087142e+000	3.933532e+000
7.975719272311592e-001	7.762257e-001	4.249241e+000
7.975719935882184e-001	1.831769e-001	4.856707e+000
7.975719945352464e-001	1.757148e-001	4.864446e+000
7.975719964293023e-001	1.629368e-001	4.877800e+000
7.975720002174143e-001	1.398717e-001	4.901384e+000
7.975720077936380e-001	1.022560e-001	4.937478e+000
7.975720170672201e-001	6.790813e-002	4.966638e+000
7.975720212266017e-001	5.727940e-002	4.974223e+000
7.975720256078865e-001	4.970811e-002	4.978702e+000
7.975720310364952e-001	4.280285e-002	4.982383e+000
7.975720363721345e-001	3.786885e-002	4.984811e+000
7.975720426613251e-001	3.374748e-002	4.986710e+000
7.975720506931775e-001	3.001346e-002	4.988348e+000
7.975720588906752e-001	2.736601e-002	4.989469e+000
7.975720710807164e-001	2.467302e-002	4.990575e+000
7.975720831004035e-001	2.287242e-002	4.991300e+000
7.975721026475047e-001	2.095114e-002	4.992060e+000
7.975721225980617e-001	1.965903e-002	4.992566e+000
7.975721525531692e-001	1.843479e-002	4.993040e+000
7.975721883875042e-001	1.750451e-002	4.993398e+000
7.975722375037310e-001	1.672469e-002	4.993697e+000
7.975723019974237e-001	1.610590e-002	4.993933e+000
7.975723902065777e-001	1.561171e-002	4.994121e+000
7.975725131354922e-001	1.522269e-002	4.994269e+000
7.975726842925724e-001	1.493166e-002	4.994379e+000
7.975729362896433e-001	1.471732e-002	4.994460e+000
7.975732981815585e-001	1.457926e-002	4.994513e+000
7.975747095050380e-001	1.446872e-002	4.994554e+000
8.013466450382188e-001	1.394139e-002	4.994559e+000
8.051185805713996e-001	1.345250e-002	4.994561e+000
8.088905161045805e-001	1.300207e-002	4.994559e+000
8.126624516377613e-001	1.259009e-002	4.994555e+000
8.164343871709422e-001	1.221655e-002	4.994546e+000
8.202063227041230e-001	1.188147e-002	4.994535e+000
8.239782582373039e-001	1.158484e-002	4.994520e+000
8.259313832373039e-001	1.154020e-002	4.994462e+000
8.278845082373039e-001	1.177922e-002	4.994266e+000
8.298376332373039e-001	1.249934e-002	4.993831e+000
8.300817738623039e-001	1.276389e-002	4.993688e+000
8.305700551123039e-001	1.370361e-002	4.993195e+000
8.306921254248039e-001	1.409114e-002	4.992993e+000
8.309362660498039e-001	1.649894e-002	4.991721e+000
8.314245472998039e-001	2.593059e-002	4.986687e+000
8.314364766640509e-001	2.673943e-002	4.986238e+000
8.314394590051126e-001	2.712659e-002	4.986020e+000
8.314454236872362e-001	2.826693e-002	4.985367e+000
8.314573530514832e-001	3.146482e-002	4.983514e+000
8.314588333411335e-001	3.225943e-002	4.983040e+000
8.314617939204342e-001	3.484148e-002	4.981483e+000
8.314621130960027e-001	3.529298e-002	4.981205e+000
8.314629110349240e-001	3.698261e-002	4.980155e+000
8.314632302104925e-001	3.828370e-002	4.979323e+000
8.314638685616296e-001	4.199153e-002	4.976917e+000
8.314639428574268e-001	4.266062e-002	4.976471e+000
8.314640914490211e-001	4.474938e-002	4.975043e+000
8.314643033098325e-001	4.912274e-002	4.971965e+000
8.314644283503971e-001	5.288911e-002	4.969236e+000
8.314644536080210e-001	5.398934e-002	4.968411e+000
8.314645041232688e-001	5.704837e-002	4.966041e+000
8.314645893207679e-001	6.465893e-002	4.959855e+000
8.314646668924087e-001	7.622783e-002	4.949828e+000
8.314647215195343e-001	9.048589e-002	4.936649e+000
8.314647619641337e-001	1.086096e-001	4.918990e+000
8.314647953226568e-001	1.336124e-001	4.893725e+000
8.314648249188348e-001	1.709885e-001	4.855236e+000
8.314648533442454e-001	2.338367e-001	4.790333e+000
8.314648860814388e-001	3.554940e-001	4.665407e+000
8.314649178743894e-001	5.400711e-001	4.477262e+000
8.314649644991849e-001	9.041191e-001	4.107956e+000
8.314650136623815e-001	1.347992e+000	3.658558e+000
8.314650679497454e-001	1.866951e+000	3.133418e+000
8.314651440875722e-001	2.603868e+000	2.388402e+000
8.314652963632259e-001	4.075891e+000	9.013954e-001
8.314653301089270e-001	4.397392e+000	5.758802e-001
8.314653385453523e-001	4.475397e+000	4.963959e-001
8.314653554182029e-001	4.624886e+000	3.427430e-001
8.314653741500557e-001	4.782800e+000	1.790306e-001
8.314653764927054e-001	4.800904e+000	1.601090e-001
8.314653811780045e-001	4.832874e+000	1.267965e-001
8.314653894912701e-001	4.881338e+000	7.796246e-002
8.314653970957506e-001	4.914949e+000	4.708817e-002
8.314654050595594e-001	4.939440e+000	2.805315e-002
8.314654085467242e-001	4.946805e+000	2.326867e-002
8.314654134152865e-001	4.953928e+000	1.931314e-002
8.314654187976909e-001	4.959786e+000	1.632010e-002
8.314654244239179e-001	4.964180e+000	1.423130e-002
8.314654317762189e-001	4.968257e+000	1.240102e-002
8.314654395102353e-001	4.971271e+000	1.110317e-002
8.314654499602359e-001	4.974077e+000	9.934900e-003
8.314654613579143e-001	4.976169e+000	9.084053e-003
8.314654775161448e-001	4.978147e+000	8.295309e-003
8.314654959833107e-001	4.979639e+000	7.708300e-003
8.314655224427302e-001	4.981009e+000	7.174952e-003
8.314655530881512e-001	4.982020e+000	6.784625e-003
8.314655969608946e-001	4.982914e+000	6.441214e-003
8.314656503027885e-001	4.983581e+000	6.186537e-003
8.314657292431755e-001	4.984163e+000	5.964614e-003
8.314658275915547e-001	4.984582e+000	5.805081e-003
8.314659803003625e-001	4.984940e+000	5.669648e-003
8.314661745883707e-001	4.985178e+000	5.579373e-003
8.314664978757187e-001	4.985362e+000	5.509750e-003
8.314679580581041e-001	4.985529e+000	5.446484e-003
8.353797171686400e-001	4.986082e+000	5.438077e-003
8.392914762791760e-001	4.986589e+000	5.435069e-003
8.432032353897119e-001	4.987052e+000	5.437461e-003
8.471149945002479e-001	4.987470e+000	5.445252e-003
8.510267536107837e-001	4.987843e+000	5.458443e-003
8.549385127213197e-001	4.988171e+000	5.477032e-003
8.588502718318556e-001	4.988454e+000	5.501021e-003
8.608033968318556e-001	4.988409e+000	5.602167e-003
8.627565218318556e-001	4.987579e+000	6.095835e-003
8.647096468318556e-001	4.985429e+000	7.254460e-003
8.648011995662306e-001	4.984981e+000	7.486995e-003
8.649232698787306e-001	4.983930e+000	8.032601e-003
8.651674105037306e-001	4.980765e+000	9.685014e-003
8.652155626725608e-001	4.979448e+000	1.038853e-002
8.653118670102213e-001	4.975186e+000	1.268975e-002
8.653163336800978e-001	4.974870e+000	1.286368e-002
8.653252670198505e-001	4.973879e+000	1.341861e-002
8.653431336993560e-001	4.971315e+000	1.486859e-002
8.653464840733299e-001	4.970536e+000	1.531800e-002
8.653531848212778e-001	4.968235e+000	1.666285e-002
8.653542504483847e-001	4.967638e+000	1.701806e-002
8.653565815076808e-001	4.965729e+000	1.816713e-002
8.653568479144576e-001	4.965372e+000	1.838588e-002
8.653573807280109e-001	4.964329e+000	1.903295e-002
8.653584463551178e-001	4.961331e+000	2.091618e-002
8.653585891559636e-001	4.960685e+000	2.133091e-002
8.653588747576553e-001	4.958877e+000	2.250733e-002
8.653589461580782e-001	4.958295e+000	2.289106e-002
8.653590889589240e-001	4.956559e+000	2.406763e-002
8.653593745606156e-001	4.951094e+000	2.790306e-002
8.653595395877316e-001	4.946160e+000	3.148406e-002
8.653595636839288e-001	4.945046e+000	3.232283e-002
8.653596118763229e-001	4.941722e+000	3.493776e-002
8.653597082611113e-001	4.931449e+000	4.347715e-002
8.653597829078810e-001	4.917578e+000	5.583106e-002
8.653598324290956e-001	4.900977e+000	7.158430e-002
8.653598692116399e-001	4.879705e+000	9.272841e-002
8.653599001556214e-001	4.849663e+000	1.234386e-001
8.653599286803140e-001	4.802449e+000	1.722036e-001
8.653599578164634e-001	4.719834e+000	2.573443e-001
8.653599893674665e-001	4.574226e+000	4.063666e-001
8.653600254245786e-001	4.332535e+000	6.521726e-001
8.653600698279074e-001	3.959253e+000	1.030441e+000
8.653601236156407e-001	3.458457e+000	1.537324e+000
8.653601800773991e-001	2.914875e+000	2.087218e+000
8.653602800867541e-001	1.946898e+000	3.065640e+000
8.653604166276108e-001	6.319439e-001	4.394485e+000
8.653604273587634e-001	5.318506e-001	4.496289e+000
8.653604488210688e-001	3.394921e-001	4.693660e+000
8.653604541866451e-001	2.938481e-001	4.740907e+000
8.653604649177977e-001	2.097207e-001	4.828758e+000
8.653604733898370e-001	1.505972e-001	4.890233e+000
8.653604799806161e-001	1.132826e-001	4.927469e+000
8.653604874828436e-001	8.209240e-002	4.955411e+000
8.653604955330176e-001	5.881961e-002	4.973022e+000
8.653604997676297e-001	5.053858e-002	4.978235e+000
8.653605044514500e-001	4.421224e-002	4.981666e+000
8.653605094555530e-001	3.920092e-002	4.984178e+000
8.653605152371232e-001	3.497280e-002	4.986159e+000
8.653605218304745e-001	3.153302e-002	4.987691e+000
8.653605315981052e-001	2.795157e-002	4.989223e+000
8.653605404483170e-001	2.571632e-002	4.990150e+000
8.653605550530936e-001	2.324121e-002	4.991152e+000
8.653605686185681e-001	2.169643e-002	4.991767e+000
8.653605927107742e-001	1.993233e-002	4.992459e+000
8.653606160004393e-001	1.882436e-002	4.992890e+000
8.653606538630807e-001	1.770962e-002	4.993320e+000
8.653606941521013e-001	1.696685e-002	4.993604e+000
8.653607606892105e-001	1.623411e-002	4.993884e+000
8.653608332044009e-001	1.575858e-002	4.994065e+000
8.653609594321469e-001	1.529853e-002	4.994240e+000
8.653611107841956e-001	1.500188e-002	4.994353e+000
8.653614134882931e-001	1.473299e-002	4.994454e+000
8.653618895735965e-001	1.457059e-002	4.994516e+000
8.653628417442034e-001	1.448694e-002	4.994547e+000
8.692679398105591e-001	1.392829e-002	4.994558e+000
8.731730378769148e-001	1.341585e-002	4.994564e+000
8.770781359432704e-001	1.294962e-002	4.994563e+000
8.809832340096262e-001	1.252961e-002	4.994556e+000
8.848883320759818e-001	1.215582e-002	4.994543e+000
8.887934301423376e-001	1.182823e-002	4.994525e+000
8.926985282086932e-001	1.154686e-002	4.994500e+000
8.946516532086932e-001	1.158649e-002	4.994402e+000
8.966047782086932e-001	1.236187e-002	4.993936e+000
8.985579032086932e-001	1.436115e-002	4.992855e+000
8.985884207868182e-001	1.445172e-002	4.992807e+000
8.986494559430682e-001	1.476179e-002	4.992646e+000
8.987715262555682e-001	1.565857e-002	4.992181e+000
8.990156668805682e-001	1.831205e-002	4.990800e+000
8.990767020368182e-001	1.970072e-002	4.990063e+000
8.991987723493182e-001	2.420450e-002	4.987645e+000
8.992045336505812e-001	2.455936e-002	4.987451e+000
8.992160562531071e-001	2.573735e-002	4.986794e+000
8.992200188108855e-001	2.587276e-002	4.986730e+000
8.992239813686640e-001	2.616590e-002	4.986572e+000
8.992279439264425e-001	2.661676e-002	4.986320e+000
8.992319064842210e-001	2.722533e-002	4.985974e+000
8.992358690419995e-001	2.799163e-002	4.985535e+000
8.992398315997779e-001	2.891564e-002	4.985001e+000
8.992437941575564e-001	2.999737e-002	4.984374e+000
8.992486382343538e-001	3.190818e-002	4.983252e+000
8.992497032805218e-001	3.258233e-002	4.982849e+000
8.992518333728578e-001	3.457141e-002	4.981648e+000
8.992522712328817e-001	3.522824e-002	4.981244e+000
8.992531469529295e-001	3.715128e-002	4.980048e+000
8.992533658829414e-001	3.787943e-002	4.979587e+000
8.992538037429653e-001	3.990628e-002	4.978288e+000
8.992539132079712e-001	4.060979e-002	4.977829e+000
8.992541321379831e-001	4.262963e-002	4.976485e+000
8.992543564251700e-001	4.539926e-002	4.974611e+000
8.992544111103410e-001	4.637016e-002	4.973937e+000
8.992545204806829e-001	4.914298e-002	4.971958e+000
8.992546508359265e-001	5.397587e-002	4.968380e+000
8.992547485836058e-001	5.961402e-002	4.964015e+000
8.992548092878243e-001	6.521408e-002	4.959452e+000
8.992548680912488e-001	7.371787e-002	4.952147e+000
8.992549150942353e-001	8.444186e-002	4.942410e+000
8.992549555509611e-001	9.935333e-002	4.928143e+000
8.992549915610948e-001	1.210773e-001	4.906478e+000
8.992550237937532e-001	1.535040e-001	4.873290e+000
8.992550528352373e-001	2.038886e-001	4.821245e+000
8.992550824289057e-001	2.921746e-001	4.730315e+000
8.992551140531551e-001	4.449066e-001	4.574125e+000
8.992551513519014e-001	7.024224e-001	4.312354e+000
8.992551948582531e-001	1.073270e+000	3.936623e+000
8.992552482106916e-001	1.572615e+000	3.431232e+000
8.992553061654525e-001	2.131187e+000	2.866215e+000
8.992554118822329e-001	3.157275e+000	1.829259e+000
8.992554383114280e-001	3.413559e+000	1.570519e+000
8.992554911698182e-001	3.920525e+000	1.058034e+000
8.992555630195428e-001	4.597454e+000	3.712019e-001
8.992555684001504e-001	4.645607e+000	3.218170e-001
8.992555791613657e-001	4.734612e+000	2.293189e-001
8.992555914209667e-001	4.826770e+000	1.332209e-001
8.992555991282146e-001	4.875266e+000	8.369619e-002
8.992556058216898e-001	4.906820e+000	5.400565e-002
8.992556141525512e-001	4.935231e+000	3.090152e-002
8.992556173060037e-001	4.942874e+000	2.562600e-002
